
T2D4C 000:044 SEGGER J-Link V6.13g (beta) Log File (0000ms, 0019ms total)
T2D4C 000:044 DLL Compiled: Feb 15 2017 17:55:53 (0000ms, 0019ms total)
T2D4C 000:044 Logging started @ 2018-03-20 19:17 (0000ms, 0019ms total)
T2D4C 000:044 JLINK_SetWarnOutHandler(...) (0000ms, 0019ms total)
T2D4C 000:044 JLINK_OpenEx(...)
Firmware: J-Link V9 compiled Mar  2 2018 17:07:57
Hardware: V9.40
S/N: 36410082
Feature(s): RDI, GDB, FlashDL, FlashBP, JFlashWEBSRV Webserver running on local port 19080 (0016ms, 0035ms total)
T2D4C 000:044   returns O.K. (0016ms, 0035ms total)
T2D4C 000:060 JLINK_SetErrorOutHandler(...) (0000ms, 0035ms total)
T2D4C 000:060 JLINK_ExecCommand("ProjectFile = "D:\RTOS_MW\mpyrt\ports\prj_keil_rt105\JLinkSettings.ini"", ...). C:\Program Files (x86)\SEGGER\JLink_V613g\JLinkDevices.xml evaluated successfully.Device "CORTEX-M7" selected.  returns 0x00 (0096ms, 0131ms total)
T2D4C 000:156 JLINK_ExecCommand("Device = MIMXRT1052:M7", ...). Device "CORTEX-M7" selected.  returns 0x00 (0000ms, 0131ms total)
T2D4C 000:156 JLINK_ExecCommand("DisableConnectionTimeout", ...).   returns 0x01 (0000ms, 0131ms total)
T2D4C 000:156 JLINK_GetHardwareVersion()  returns 0x16F30 (0000ms, 0131ms total)
T2D4C 000:156 JLINK_GetDLLVersion()  returns 61307 (0000ms, 0131ms total)
T2D4C 000:156 JLINK_GetFirmwareString(...) (0000ms, 0131ms total)
T2D4C 000:157 JLINK_GetDLLVersion()  returns 61307 (0000ms, 0131ms total)
T2D4C 000:157 JLINK_GetCompileDateTime() (0000ms, 0131ms total)
T2D4C 000:157 JLINK_GetFirmwareString(...) (0000ms, 0131ms total)
T2D4C 000:157 JLINK_GetHardwareVersion()  returns 0x16F30 (0000ms, 0131ms total)
T2D4C 000:157 JLINK_TIF_Select(JLINKARM_TIF_SWD)  returns 0x00 (0000ms, 0131ms total)
T2D4C 000:157 JLINK_SetSpeed(50000) (0000ms, 0131ms total)
T2D4C 000:157 JLINK_GetId() >0x108 TIF>Found SWD-DP with ID 0x0BD11477 >0x0D TIF> >0x28 TIF> >0x0D TIF> >0x28 TIF> >0x0D TIF> >0x28 TIF> >0x0D TIF> >0x28 TIF> >0x0D TIF> >0x21 TIF> >0x0D TIF> >0x28 TIF> >0x0D TIF> >0x28 TIF> >0x0D TIF> >0x21 TIF> >0x0D TIF> >0x21 TIF> >0x0D TIF> >0x21 TIF>AP-IDR: 0x04770041, Type: AHB-APAHB-AP ROM: 0xE00FD000 (Base addr. of first ROM table) >0x0D TIF> >0x28 TIF> >0x0D TIF> >0x28 TIF> >0x0D TIF> >0x28 TIF> >0x0D TIF> >0x21 TIF> >0x0D TIF> >0x21 TIF> >0x0D TIF> >0x28 TIF>
 >0x0D TIF> >0x21 TIF> >0x0D TIF> >0x21 TIF>Found Cortex-M7 r1p1, Little endian. -- CPU_ReadMem(4 bytes @ 0xE000EDF0) -- CPU_WriteMem(4 bytes @ 0xE000EDF0) -- CPU_ReadMem(4 bytes @ 0xE0002000)FPUnit: 8 code (BP) slots and 0 literal slots -- CPU_ReadMem(4 bytes @ 0xE000EDFC) -- CPU_WriteMem(4 bytes @ 0xE000EDFC) -- CPU_ReadMem(4 bytes @ 0xE0001000) -- CPU_WriteMem(4 bytes @ 0xE0001000) -- CPU_ReadMem(4 bytes @ 0xE000ED88) -- CPU_WriteMem(4 bytes @ 0xE000ED88) -- CPU_ReadMem(4 bytes @ 0xE000ED88)
 -- CPU_WriteMem(4 bytes @ 0xE000ED88)CoreSight components:ROMTbl 0 @ E00FD000 -- CPU_ReadMem(16 bytes @ 0xE00FD000) -- CPU_ReadMem(16 bytes @ 0xE00FEFF0) -- CPU_ReadMem(16 bytes @ 0xE00FEFE0)ROMTbl 0 [0]: 00001000, CID: B105100D, PID: 000BB4C8 ROM TableROMTbl 1 @ E00FE000 -- CPU_ReadMem(16 bytes @ 0xE00FE000) -- CPU_ReadMem(16 bytes @ 0xE00FFFF0) -- CPU_ReadMem(16 bytes @ 0xE00FFFE0)ROMTbl 1 [0]: 00001000, CID: B105100D, PID: 000BB4C7 ROM TableROMTbl 2 @ E00FF000 -- CPU_ReadMem(16 bytes @ 0xE00FF000)
 -- CPU_ReadMem(16 bytes @ 0xE000EFF0) -- CPU_ReadMem(16 bytes @ 0xE000EFE0)ROMTbl 2 [0]: FFF0F000, CID: B105E00D, PID: 000BB00C SCS -- CPU_ReadMem(16 bytes @ 0xE0001FF0) -- CPU_ReadMem(16 bytes @ 0xE0001FE0)ROMTbl 2 [1]: FFF02000, CID: B105E00D, PID: 000BB002 DWT -- CPU_ReadMem(16 bytes @ 0xE0002FF0) -- CPU_ReadMem(16 bytes @ 0xE0002FE0)ROMTbl 2 [2]: FFF03000, CID: B105E00D, PID: 000BB00E FPB -- CPU_ReadMem(16 bytes @ 0xE0000FF0) -- CPU_ReadMem(16 bytes @ 0xE0000FE0)
ROMTbl 2 [3]: FFF01000, CID: B105E00D, PID: 000BB001 ITM -- CPU_ReadMem(16 bytes @ 0xE00FF010) -- CPU_ReadMem(16 bytes @ 0xE0041FF0) -- CPU_ReadMem(16 bytes @ 0xE0041FE0)ROMTbl 1 [1]: FFF43000, CID: B105900D, PID: 001BB975 ETM-M7 -- CPU_ReadMem(16 bytes @ 0xE0042FF0) -- CPU_ReadMem(16 bytes @ 0xE0042FE0)ROMTbl 1 [2]: FFF44000, CID: B105900D, PID: 004BB906 ECT / CTI -- CPU_ReadMem(16 bytes @ 0xE00FE010) -- CPU_ReadMem(16 bytes @ 0xE0040FF0) -- CPU_ReadMem(16 bytes @ 0xE0040FE0)
ROMTbl 0 [1]: FFF43000, CID: B105900D, PID: 000BB9A9 TPIU-M7 -- CPU_ReadMem(16 bytes @ 0xE0043FF0) -- CPU_ReadMem(16 bytes @ 0xE0043FE0)ROMTbl 0 [2]: FFF46000, CID: B105F00D, PID: 001BB101 TSG -- CPU_ReadMem(16 bytes @ 0xE00FD010) -- CPU_ReadMem(4 bytes @ 0xE000ED78)Cache: Separate I- and D-cache. (0015ms, 0146ms total)
T2D4C 000:157  -- CPU_WriteMem(4 bytes @ 0xE000ED84) -- CPU_ReadMem(4 bytes @ 0xE000ED80)I-Cache L1: 32 KB, 512 Sets, 32 Bytes/Line, 2-Way -- CPU_WriteMem(4 bytes @ 0xE000ED84) -- CPU_ReadMem(4 bytes @ 0xE000ED80)D-Cache L1: 32 KB, 256 Sets, 32 Bytes/Line, 4-Way >0x0D TIF> >0x21 TIF>  returns 0x0BD11477 (0016ms, 0147ms total)
T2D4C 000:173 JLINK_GetDLLVersion()  returns 61307 (0000ms, 0147ms total)
T2D4C 000:173 JLINK_CORE_GetFound()  returns 0xE0100FF (0000ms, 0147ms total)
T2D4C 000:173 JLINK_GetDebugInfo(0x100) -- Value=0xE00FD000  returns 0x00 (0000ms, 0147ms total)
T2D4C 000:173 JLINK_GetDebugInfo(0x100) -- Value=0xE00FD000  returns 0x00 (0000ms, 0147ms total)
T2D4C 000:173 JLINK_GetDebugInfo(0x101) -- Value=0xE0041000  returns 0x00 (0000ms, 0147ms total)
T2D4C 000:173 JLINK_GetDebugInfo(0x102) -- Value=0x00000000  returns 0x00 (0000ms, 0147ms total)
T2D4C 000:173 JLINK_GetDebugInfo(0x103) -- Value=0xE0040000  returns 0x00 (0000ms, 0147ms total)
T2D4C 000:173 JLINK_GetDebugInfo(0x104) -- Value=0xE0000000  returns 0x00 (0000ms, 0147ms total)
T2D4C 000:173 JLINK_GetDebugInfo(0x105) -- Value=0xE0001000  returns 0x00 (0000ms, 0147ms total)
T2D4C 000:173 JLINK_GetDebugInfo(0x106) -- Value=0xE0002000  returns 0x00 (0000ms, 0147ms total)
T2D4C 000:173 JLINK_GetDebugInfo(0x107) -- Value=0xE000E000  returns 0x00 (0000ms, 0147ms total)
T2D4C 000:173 JLINK_GetDebugInfo(0x10C) -- Value=0xE000EDF0  returns 0x00 (0000ms, 0147ms total)
T2D4C 000:173 JLINK_ReadMemU32(0xE000ED00, 0x0001 Items, ...) -- CPU is running -- CPU_ReadMem(4 bytes @ 0xE000ED00) - Data: 71 C2 1F 41  returns 0x01 (0001ms, 0148ms total)
T2D4C 000:174 JLINK_ReadMemU32(0xE000EDF0, 0x0001 Items, ...) -- CPU is running -- CPU_ReadMem(4 bytes @ 0xE000EDF0) - Data: 01 00 01 01  returns 0x01 (0000ms, 0148ms total)
T2D4C 000:174 JLINK_SetResetType(JLINKARM_CM3_RESET_TYPE_NORMAL)  returns JLINKARM_CM3_RESET_TYPE_NORMAL (0000ms, 0148ms total)
T2D4C 000:174 JLINK_Reset() -- CPU is running -- CPU_WriteMem(4 bytes @ 0xE000EDF0) -- CPU is running -- CPU_WriteMem(4 bytes @ 0xE000EDFC) >0x35 TIF> -- CPU is running -- CPU_WriteMem(4 bytes @ 0xE000ED0C) -- CPU is running -- CPU_ReadMem(4 bytes @ 0xE000EDF0) -- CPU is running -- CPU_ReadMem(4 bytes @ 0xE000EDF0) -- CPU is running -- CPU_WriteMem(4 bytes @ 0xE000EDF0) -- CPU is running -- CPU_WriteMem(4 bytes @ 0xE000EDFC) -- CPU is running -- CPU_ReadMem(4 bytes @ 0xE000EDF0)
 -- CPU_WriteMem(4 bytes @ 0xE0002000) -- CPU_ReadMem(4 bytes @ 0xE000EDFC) -- CPU_ReadMem(4 bytes @ 0xE0001000) (0113ms, 0261ms total)
T2D4C 000:287 JLINK_ReadReg(R15 (PC))  returns 0x0020C788 (0000ms, 0261ms total)
T2D4C 000:287 JLINK_ReadReg(XPSR)  returns 0x01000000 (0000ms, 0261ms total)
T2D4C 000:287 JLINK_Halt()  returns 0x00 (0000ms, 0261ms total)
T2D4C 000:287 JLINK_IsHalted()  returns TRUE (0000ms, 0261ms total)
T2D4C 000:287 JLINK_ReadMemU32(0xE000EDF0, 0x0001 Items, ...) -- CPU_ReadMem(4 bytes @ 0xE000EDF0) - Data: 03 00 03 00  returns 0x01 (0000ms, 0261ms total)
T2D4C 000:287 JLINK_WriteU32(0xE000EDF0, 0xA05F0003) -- CPU_WriteMem(4 bytes @ 0xE000EDF0)  returns 0x00 (0001ms, 0262ms total)
T2D4C 000:288 JLINK_WriteU32(0xE000EDFC, 0x01000000) -- CPU_WriteMem(4 bytes @ 0xE000EDFC)  returns 0x00 (0000ms, 0262ms total)
T2D4C 000:288 JLINK_GetHWStatus(...)  returns 0x00 (0000ms, 0262ms total)
T2D4C 000:288 JLINK_GetNumBPUnits(Type = 0xFFFFFF00)  returns 0x08 (0000ms, 0262ms total)
T2D4C 000:288 JLINK_GetNumBPUnits(Type = 0xF0)  returns 0x2000 (0000ms, 0262ms total)
T2D4C 000:288 JLINK_GetNumWPUnits()  returns 0x04 (0000ms, 0262ms total)
T2D4C 000:288 JLINK_GetSpeed()  returns 0x2EE0 (0000ms, 0262ms total)
T2D4C 000:288 JLINK_ReadMemU32(0xE000E004, 0x0001 Items, ...) -- CPU_ReadMem(4 bytes @ 0xE000E004) - Data: 04 00 00 00  returns 0x01 (0000ms, 0262ms total)
T2D4C 000:288 JLINK_ReadMemU32(0xE000E004, 0x0001 Items, ...) -- CPU_ReadMem(4 bytes @ 0xE000E004) - Data: 04 00 00 00  returns 0x01 (0000ms, 0262ms total)
T2D4C 000:288 JLINK_WriteMem(0xE0001000, 0x001C Bytes, ...) - Data: 01 00 00 00 00 00 00 00 00 00 00 00 00 00 00 00 ... -- CPU_WriteMem(28 bytes @ 0xE0001000)  returns 0x1C (0001ms, 0263ms total)
T2D4C 000:289 JLINK_ReadMem (0xE0001000, 0x001C Bytes, ...) -- CPU_ReadMem(28 bytes @ 0xE0001000) - Data: 01 00 00 40 00 00 00 00 00 00 00 00 00 00 00 00 ...  returns 0x00 (0000ms, 0263ms total)
T2D4C 000:289 JLINK_ReadReg(R15 (PC))  returns 0x0020C788 (0000ms, 0263ms total)
T2D4C 000:289 JLINK_ReadReg(XPSR)  returns 0x01000000 (0000ms, 0263ms total)
T2D4C 000:330 JLINK_ReadMem (0xE000ED04, 0x0004 Bytes, ...) -- CPU_ReadMem(4 bytes @ 0xE000ED04) - Data: 00 00 00 00  returns 0x00 (0001ms, 0264ms total)
T2D4C 000:331 JLINK_ReadMem (0xE000ED08, 0x0004 Bytes, ...) -- CPU_ReadMem(4 bytes @ 0xE000ED08) - Data: 00 00 20 00  returns 0x00 (0000ms, 0264ms total)
T2D4C 000:331 JLINK_ReadMem (0xE000ED0C, 0x0004 Bytes, ...) -- CPU_ReadMem(4 bytes @ 0xE000ED0C) - Data: 00 00 05 FA  returns 0x00 (0001ms, 0265ms total)
T2D4C 000:332 JLINK_ReadMem (0xE000ED18, 0x0004 Bytes, ...) -- CPU_ReadMem(4 bytes @ 0xE000ED18) - Data: 00 00 00 00  returns 0x00 (0000ms, 0265ms total)
T2D4C 000:332 JLINK_ReadMem (0xE000ED1C, 0x0004 Bytes, ...) -- CPU_ReadMem(4 bytes @ 0xE000ED1C) - Data: 00 00 00 00  returns 0x00 (0001ms, 0266ms total)
T2D4C 000:333 JLINK_ReadMem (0xE000ED20, 0x0004 Bytes, ...) -- CPU_ReadMem(4 bytes @ 0xE000ED20) - Data: 00 00 00 00  returns 0x00 (0000ms, 0266ms total)
T2D4C 000:333 JLINK_ReadMem (0xE000ED24, 0x0004 Bytes, ...) -- CPU_ReadMem(4 bytes @ 0xE000ED24) - Data: 00 00 00 00  returns 0x00 (0000ms, 0266ms total)
T2D4C 000:333 JLINK_ReadMem (0xE000EDFC, 0x0004 Bytes, ...) - Data: 00 00 00 01  returns 0x00 (0000ms, 0266ms total)
T2D4C 000:333 JLINK_ReadMem (0xE000E100, 0x0020 Bytes, ...) -- CPU_ReadMem(32 bytes @ 0xE000E100) - Data: 00 00 00 00 00 00 00 00 00 00 00 00 00 00 00 00 ...  returns 0x00 (0000ms, 0266ms total)
T2D4C 000:333 JLINK_ReadMem (0xE000E200, 0x0020 Bytes, ...) -- CPU_ReadMem(32 bytes @ 0xE000E200) - Data: 00 00 00 00 00 00 00 00 00 00 00 00 00 00 00 00 ...  returns 0x00 (0001ms, 0267ms total)
T2D4C 000:334 JLINK_ReadMem (0xE000E300, 0x0020 Bytes, ...) -- CPU_ReadMem(32 bytes @ 0xE000E300) - Data: 00 00 00 00 00 00 00 00 00 00 00 00 00 00 00 00 ...  returns 0x00 (0000ms, 0267ms total)
T2D4C 000:334 JLINK_ReadMem (0xE000E400, 0x0100 Bytes, ...) -- CPU_ReadMem(256 bytes @ 0xE000E400) - Data: 00 00 00 00 00 00 00 00 00 00 00 00 00 00 00 00 ...  returns 0x00 (0001ms, 0268ms total)
T2D4C 000:337 JLINK_ReadMem (0xE000ED04, 0x0004 Bytes, ...) -- CPU_ReadMem(4 bytes @ 0xE000ED04) - Data: 00 00 00 00  returns 0x00 (0000ms, 0268ms total)
T2D4C 000:337 JLINK_ReadMem (0xE000ED08, 0x0004 Bytes, ...) -- CPU_ReadMem(4 bytes @ 0xE000ED08) - Data: 00 00 20 00  returns 0x00 (0000ms, 0268ms total)
T2D4C 000:337 JLINK_ReadMem (0xE000ED0C, 0x0004 Bytes, ...) -- CPU_ReadMem(4 bytes @ 0xE000ED0C) - Data: 00 00 05 FA  returns 0x00 (0001ms, 0269ms total)
T2D4C 000:338 JLINK_ReadMem (0xE000ED18, 0x0004 Bytes, ...) -- CPU_ReadMem(4 bytes @ 0xE000ED18) - Data: 00 00 00 00  returns 0x00 (0000ms, 0269ms total)
T2D4C 000:338 JLINK_ReadMem (0xE000ED1C, 0x0004 Bytes, ...) -- CPU_ReadMem(4 bytes @ 0xE000ED1C) - Data: 00 00 00 00  returns 0x00 (0000ms, 0269ms total)
T2D4C 000:338 JLINK_ReadMem (0xE000ED20, 0x0004 Bytes, ...) -- CPU_ReadMem(4 bytes @ 0xE000ED20) - Data: 00 00 00 00  returns 0x00 (0000ms, 0269ms total)
T2D4C 000:338 JLINK_ReadMem (0xE000ED24, 0x0004 Bytes, ...) -- CPU_ReadMem(4 bytes @ 0xE000ED24) - Data: 00 00 00 00  returns 0x00 (0000ms, 0269ms total)
T2D4C 000:338 JLINK_ReadMem (0xE000EDFC, 0x0004 Bytes, ...) - Data: 00 00 00 01  returns 0x00 (0000ms, 0269ms total)
T2D4C 000:338 JLINK_ReadMem (0xE000E100, 0x0020 Bytes, ...) -- CPU_ReadMem(32 bytes @ 0xE000E100) - Data: 00 00 00 00 00 00 00 00 00 00 00 00 00 00 00 00 ...  returns 0x00 (0001ms, 0270ms total)
T2D4C 000:339 JLINK_ReadMem (0xE000E200, 0x0020 Bytes, ...) -- CPU_ReadMem(32 bytes @ 0xE000E200) - Data: 00 00 00 00 00 00 00 00 00 00 00 00 00 00 00 00 ...  returns 0x00 (0000ms, 0270ms total)
T2D4C 000:339 JLINK_ReadMem (0xE000E300, 0x0020 Bytes, ...) -- CPU_ReadMem(32 bytes @ 0xE000E300) - Data: 00 00 00 00 00 00 00 00 00 00 00 00 00 00 00 00 ...  returns 0x00 (0000ms, 0270ms total)
T2D4C 000:339 JLINK_ReadMem (0xE000E400, 0x0100 Bytes, ...) -- CPU_ReadMem(256 bytes @ 0xE000E400) - Data: 00 00 00 00 00 00 00 00 00 00 00 00 00 00 00 00 ...  returns 0x00 (0001ms, 0271ms total)
T2D4C 000:497 JLINK_ReadMem (0xE000ED04, 0x0004 Bytes, ...) -- CPU_ReadMem(4 bytes @ 0xE000ED04) - Data: 00 00 00 00  returns 0x00 (0000ms, 0271ms total)
T2D4C 000:497 JLINK_ReadMem (0xE000ED08, 0x0004 Bytes, ...) -- CPU_ReadMem(4 bytes @ 0xE000ED08) - Data: 00 00 20 00  returns 0x00 (0001ms, 0272ms total)
T2D4C 000:498 JLINK_ReadMem (0xE000ED0C, 0x0004 Bytes, ...) -- CPU_ReadMem(4 bytes @ 0xE000ED0C) - Data: 00 00 05 FA  returns 0x00 (0000ms, 0272ms total)
T2D4C 000:498 JLINK_ReadMem (0xE000ED18, 0x0004 Bytes, ...) -- CPU_ReadMem(4 bytes @ 0xE000ED18) - Data: 00 00 00 00  returns 0x00 (0000ms, 0272ms total)
T2D4C 000:498 JLINK_ReadMem (0xE000ED1C, 0x0004 Bytes, ...) -- CPU_ReadMem(4 bytes @ 0xE000ED1C) - Data: 00 00 00 00  returns 0x00 (0000ms, 0272ms total)
T2D4C 000:498 JLINK_ReadMem (0xE000ED20, 0x0004 Bytes, ...) -- CPU_ReadMem(4 bytes @ 0xE000ED20) - Data: 00 00 00 00  returns 0x00 (0001ms, 0273ms total)
T2D4C 000:499 JLINK_ReadMem (0xE000ED24, 0x0004 Bytes, ...) -- CPU_ReadMem(4 bytes @ 0xE000ED24) - Data: 00 00 00 00  returns 0x00 (0000ms, 0273ms total)
T2D4C 000:499 JLINK_ReadMem (0xE000EDFC, 0x0004 Bytes, ...) - Data: 00 00 00 01  returns 0x00 (0000ms, 0273ms total)
T2D4C 000:499 JLINK_ReadMem (0xE000E100, 0x0020 Bytes, ...) -- CPU_ReadMem(32 bytes @ 0xE000E100) - Data: 00 00 00 00 00 00 00 00 00 00 00 00 00 00 00 00 ...  returns 0x00 (0000ms, 0273ms total)
T2D4C 000:499 JLINK_ReadMem (0xE000E200, 0x0020 Bytes, ...) -- CPU_ReadMem(32 bytes @ 0xE000E200) - Data: 00 00 00 00 00 00 00 00 00 00 00 00 00 00 00 00 ...  returns 0x00 (0001ms, 0274ms total)
T2D4C 000:500 JLINK_ReadMem (0xE000E300, 0x0020 Bytes, ...) -- CPU_ReadMem(32 bytes @ 0xE000E300) - Data: 00 00 00 00 00 00 00 00 00 00 00 00 00 00 00 00 ...  returns 0x00 (0000ms, 0274ms total)
T2D4C 000:500 JLINK_ReadMem (0xE000E400, 0x0100 Bytes, ...) -- CPU_ReadMem(256 bytes @ 0xE000E400) - Data: 00 00 00 00 00 00 00 00 00 00 00 00 00 00 00 00 ...  returns 0x00 (0000ms, 0274ms total)
T2D4C 000:506 JLINK_ReadMem (0xE000ED04, 0x0004 Bytes, ...) -- CPU_ReadMem(4 bytes @ 0xE000ED04) - Data: 00 00 00 00  returns 0x00 (0000ms, 0274ms total)
T2D4C 000:506 JLINK_ReadMem (0xE000ED08, 0x0004 Bytes, ...) -- CPU_ReadMem(4 bytes @ 0xE000ED08) - Data: 00 00 20 00  returns 0x00 (0000ms, 0274ms total)
T2D4C 000:506 JLINK_ReadMem (0xE000ED0C, 0x0004 Bytes, ...) -- CPU_ReadMem(4 bytes @ 0xE000ED0C) - Data: 00 00 05 FA  returns 0x00 (0000ms, 0274ms total)
T2D4C 000:506 JLINK_ReadMem (0xE000ED18, 0x0004 Bytes, ...) -- CPU_ReadMem(4 bytes @ 0xE000ED18) - Data: 00 00 00 00  returns 0x00 (0000ms, 0274ms total)
T2D4C 000:506 JLINK_ReadMem (0xE000ED1C, 0x0004 Bytes, ...) -- CPU_ReadMem(4 bytes @ 0xE000ED1C) - Data: 00 00 00 00  returns 0x00 (0001ms, 0275ms total)
T2D4C 000:507 JLINK_ReadMem (0xE000ED20, 0x0004 Bytes, ...) -- CPU_ReadMem(4 bytes @ 0xE000ED20) - Data: 00 00 00 00  returns 0x00 (0000ms, 0275ms total)
T2D4C 000:507 JLINK_ReadMem (0xE000ED24, 0x0004 Bytes, ...) -- CPU_ReadMem(4 bytes @ 0xE000ED24) - Data: 00 00 00 00  returns 0x00 (0001ms, 0276ms total)
T2D4C 000:508 JLINK_ReadMem (0xE000EDFC, 0x0004 Bytes, ...) - Data: 00 00 00 01  returns 0x00 (0000ms, 0276ms total)
T2D4C 000:508 JLINK_ReadMem (0xE000E100, 0x0020 Bytes, ...) -- CPU_ReadMem(32 bytes @ 0xE000E100) - Data: 00 00 00 00 00 00 00 00 00 00 00 00 00 00 00 00 ...  returns 0x00 (0000ms, 0276ms total)
T2D4C 000:508 JLINK_ReadMem (0xE000E200, 0x0020 Bytes, ...) -- CPU_ReadMem(32 bytes @ 0xE000E200) - Data: 00 00 00 00 00 00 00 00 00 00 00 00 00 00 00 00 ...  returns 0x00 (0000ms, 0276ms total)
T2D4C 000:508 JLINK_ReadMem (0xE000E300, 0x0020 Bytes, ...) -- CPU_ReadMem(32 bytes @ 0xE000E300) - Data: 00 00 00 00 00 00 00 00 00 00 00 00 00 00 00 00 ...  returns 0x00 (0001ms, 0277ms total)
T2D4C 000:509 JLINK_ReadMem (0xE000E400, 0x0100 Bytes, ...) -- CPU_ReadMem(256 bytes @ 0xE000E400) - Data: 00 00 00 00 00 00 00 00 00 00 00 00 00 00 00 00 ...  returns 0x00 (0001ms, 0278ms total)
T2D4C 000:563 JLINK_ReadMem (0x400FC000, 0x0004 Bytes, ...) -- CPU_ReadMem(4 bytes @ 0x400FC000) - Data: 7F 10 01 04  returns 0x00 (0000ms, 0278ms total)
T2D4C 000:563 JLINK_ReadMem (0x400FC008, 0x0028 Bytes, ...) -- CPU_ReadMem(40 bytes @ 0x400FC008) - Data: 38 00 00 00 00 01 00 00 01 00 00 00 00 83 0A 00 ...  returns 0x00 (0000ms, 0278ms total)
T2D4C 000:563 JLINK_ReadMem (0x400FC030, 0x0004 Bytes, ...) -- CPU_ReadMem(4 bytes @ 0x400FC030) - Data: 92 1F F7 33  returns 0x00 (0001ms, 0279ms total)
T2D4C 000:564 JLINK_ReadMem (0x400FC038, 0x0004 Bytes, ...) -- CPU_ReadMem(4 bytes @ 0x400FC038) - Data: 50 91 02 00  returns 0x00 (0000ms, 0279ms total)
T2D4C 000:564 JLINK_ReadMem (0x400FC03C, 0x0004 Bytes, ...) -- CPU_ReadMem(4 bytes @ 0x400FC03C) - Data: 41 08 03 00  returns 0x00 (0000ms, 0279ms total)
T2D4C 000:564 JLINK_ReadMem (0x400FC048, 0x0004 Bytes, ...) -- CPU_ReadMem(4 bytes @ 0x400FC048) - Data: 00 00 00 00  returns 0x00 (0000ms, 0279ms total)
T2D4C 000:564 JLINK_ReadMem (0x400FC054, 0x002C Bytes, ...) -- CPU_ReadMem(44 bytes @ 0x400FC054) - Data: 79 00 00 00 00 00 12 04 FF FF FF FF 01 00 0A 00 ...  returns 0x00 (0001ms, 0280ms total)
T2D4C 000:565 JLINK_ReadMem (0x400FC080, 0x0004 Bytes, ...) -- CPU_ReadMem(4 bytes @ 0x400FC080) - Data: FF FF FF FF  returns 0x00 (0000ms, 0280ms total)
T2D4C 000:565 JLINK_ReadMem (0x400FC088, 0x0004 Bytes, ...) -- CPU_ReadMem(4 bytes @ 0x400FC088) - Data: FF FF FF 7F  returns 0x00 (0000ms, 0280ms total)
T2D4C 000:637 JLINK_ReadMem (0x400D8000, 0x0040 Bytes, ...) -- CPU_ReadMem(64 bytes @ 0x400D8000) - Data: 42 30 01 00 42 30 01 00 42 30 01 00 42 30 01 00 ...  returns 0x00 (0001ms, 0281ms total)
T2D4C 000:638 JLINK_ReadMem (0x400D8040, 0x0004 Bytes, ...) -- CPU_ReadMem(4 bytes @ 0x400D8040) - Data: 00 00 00 00  returns 0x00 (0001ms, 0282ms total)
T2D4C 000:639 JLINK_ReadMem (0x400D8050, 0x0004 Bytes, ...) -- CPU_ReadMem(4 bytes @ 0x400D8050) - Data: 00 00 00 00  returns 0x00 (0000ms, 0282ms total)
T2D4C 000:639 JLINK_ReadMem (0x400D8060, 0x0004 Bytes, ...) -- CPU_ReadMem(4 bytes @ 0x400D8060) - Data: 12 00 00 00  returns 0x00 (0000ms, 0282ms total)
T2D4C 000:639 JLINK_ReadMem (0x400D8070, 0x0010 Bytes, ...) -- CPU_ReadMem(16 bytes @ 0x400D8070) - Data: 06 10 01 00 06 10 01 00 06 10 01 00 06 10 01 00  returns 0x00 (0000ms, 0282ms total)
T2D4C 000:639 JLINK_ReadMem (0x400D8080, 0x0004 Bytes, ...) -- CPU_ReadMem(4 bytes @ 0x400D8080) - Data: 00 E1 F5 05  returns 0x00 (0001ms, 0283ms total)
T2D4C 000:640 JLINK_ReadMem (0x400D8090, 0x0004 Bytes, ...) -- CPU_ReadMem(4 bytes @ 0x400D8090) - Data: 9C 61 64 29  returns 0x00 (0000ms, 0283ms total)
T2D4C 000:640 JLINK_ReadMem (0x400D80A0, 0x0010 Bytes, ...) -- CPU_ReadMem(16 bytes @ 0x400D80A0) - Data: 0C 10 01 00 0C 10 01 00 0C 10 01 00 0C 10 01 00  returns 0x00 (0000ms, 0283ms total)
T2D4C 000:640 JLINK_ReadMem (0x400D80B0, 0x0004 Bytes, ...) -- CPU_ReadMem(4 bytes @ 0x400D80B0) - Data: 00 E1 F5 05  returns 0x00 (0000ms, 0283ms total)
T2D4C 000:640 JLINK_ReadMem (0x400D80C0, 0x0004 Bytes, ...) -- CPU_ReadMem(4 bytes @ 0x400D80C0) - Data: 47 44 A2 10  returns 0x00 (0000ms, 0283ms total)
T2D4C 000:640 JLINK_ReadMem (0x400D80E0, 0x002C Bytes, ...) -- CPU_ReadMem(44 bytes @ 0x400D80E0) - Data: 05 10 01 00 05 10 01 00 05 10 01 00 05 10 01 00 ...  returns 0x00 (0001ms, 0284ms total)
T2D4C 000:641 JLINK_ReadMem (0x400D810C, 0x0004 Bytes, ...) -- CPU_ReadMem(4 bytes @ 0x400D810C) - Data: 1B 10 18 10  returns 0x00 (0000ms, 0284ms total)
T2D4C 000:641 JLINK_ReadMem (0x400D8150, 0x002C Bytes, ...) -- CPU_ReadMem(44 bytes @ 0x400D8150) - Data: 80 80 00 24 80 80 00 24 80 80 00 24 80 80 00 24 ...  returns 0x00 (0000ms, 0284ms total)
T2D4C 000:641 JLINK_ReadMem (0x400D817C, 0x0004 Bytes, ...) -- CPU_ReadMem(4 bytes @ 0x400D817C) - Data: 2F 27 2F 00  returns 0x00 (0000ms, 0284ms total)
T2D4C 001:314 JLINK_ReadMem (0x00000000, 0x003C Bytes, ...) -- CPU_ReadMem(60 bytes @ 0x00000000) - Data: 00 00 00 00 EF 37 00 00 50 00 9B BF 00 0E F6 FE ...  returns 0x00 (0001ms, 0285ms total)
T2D4C 002:421 JLINK_WriteMem(0x400FC068, 0x0004 Bytes, ...) - Data: FF FF FF FF -- CPU_WriteMem(4 bytes @ 0x400FC068)  returns 0x04 (0001ms, 0286ms total)
T2D4C 002:422 JLINK_WriteMem(0x400FC06C, 0x0004 Bytes, ...) - Data: FF FF FF FF -- CPU_WriteMem(4 bytes @ 0x400FC06C)  returns 0x04 (0000ms, 0286ms total)
T2D4C 002:422 JLINK_WriteMem(0x400FC070, 0x0004 Bytes, ...) - Data: FF FF FF FF -- CPU_WriteMem(4 bytes @ 0x400FC070)  returns 0x04 (0000ms, 0286ms total)
T2D4C 002:422 JLINK_WriteMem(0x400FC074, 0x0004 Bytes, ...) - Data: FF FF FF FF -- CPU_WriteMem(4 bytes @ 0x400FC074)  returns 0x04 (0000ms, 0286ms total)
T2D4C 002:422 JLINK_WriteMem(0x400FC078, 0x0004 Bytes, ...) - Data: FF FF FF FF -- CPU_WriteMem(4 bytes @ 0x400FC078)  returns 0x04 (0001ms, 0287ms total)
T2D4C 002:423 JLINK_WriteMem(0x400FC07C, 0x0004 Bytes, ...) - Data: FF FF FF FF -- CPU_WriteMem(4 bytes @ 0x400FC07C)  returns 0x04 (0000ms, 0287ms total)
T2D4C 002:423 JLINK_WriteMem(0x400FC080, 0x0004 Bytes, ...) - Data: FF FF FF FF -- CPU_WriteMem(4 bytes @ 0x400FC080)  returns 0x04 (0000ms, 0287ms total)
T2D4C 002:423 JLINK_WriteMem(0x400D8030, 0x0004 Bytes, ...) - Data: 01 20 00 00 -- CPU_WriteMem(4 bytes @ 0x400D8030)  returns 0x04 (0000ms, 0287ms total)
T2D4C 002:423 JLINK_WriteMem(0x400D8100, 0x0004 Bytes, ...) - Data: 00 00 1D 00 -- CPU_WriteMem(4 bytes @ 0x400D8100)  returns 0x04 (0000ms, 0287ms total)
T2D4C 002:423 JLINK_WriteMem(0x400FC014, 0x0004 Bytes, ...) - Data: 40 0D 01 00 -- CPU_WriteMem(4 bytes @ 0x400FC014)  returns 0x04 (0001ms, 0288ms total)
T2D4C 002:424 JLINK_WriteMem(0x401F8014, 0x0004 Bytes, ...) - Data: 00 00 00 00 -- CPU_WriteMem(4 bytes @ 0x401F8014)  returns 0x04 (0000ms, 0288ms total)
T2D4C 002:424 JLINK_WriteMem(0x401F8018, 0x0004 Bytes, ...) - Data: 00 00 00 00 -- CPU_WriteMem(4 bytes @ 0x401F8018)  returns 0x04 (0000ms, 0288ms total)
T2D4C 002:424 JLINK_WriteMem(0x401F801C, 0x0004 Bytes, ...) - Data: 00 00 00 00 -- CPU_WriteMem(4 bytes @ 0x401F801C)  returns 0x04 (0000ms, 0288ms total)
T2D4C 002:424 JLINK_WriteMem(0x401F8020, 0x0004 Bytes, ...) - Data: 00 00 00 00 -- CPU_WriteMem(4 bytes @ 0x401F8020)  returns 0x04 (0001ms, 0289ms total)
T2D4C 002:425 JLINK_WriteMem(0x401F8024, 0x0004 Bytes, ...) - Data: 00 00 00 00 -- CPU_WriteMem(4 bytes @ 0x401F8024)  returns 0x04 (0000ms, 0289ms total)
T2D4C 002:425 JLINK_WriteMem(0x401F8028, 0x0004 Bytes, ...) - Data: 00 00 00 00 -- CPU_WriteMem(4 bytes @ 0x401F8028)  returns 0x04 (0000ms, 0289ms total)
T2D4C 002:425 JLINK_WriteMem(0x401F802C, 0x0004 Bytes, ...) - Data: 00 00 00 00 -- CPU_WriteMem(4 bytes @ 0x401F802C)  returns 0x04 (0000ms, 0289ms total)
T2D4C 002:425 JLINK_WriteMem(0x401F8030, 0x0004 Bytes, ...) - Data: 00 00 00 00 -- CPU_WriteMem(4 bytes @ 0x401F8030)  returns 0x04 (0000ms, 0289ms total)
T2D4C 002:425 JLINK_WriteMem(0x401F8034, 0x0004 Bytes, ...) - Data: 00 00 00 00 -- CPU_WriteMem(4 bytes @ 0x401F8034)  returns 0x04 (0001ms, 0290ms total)
T2D4C 002:426 JLINK_WriteMem(0x401F8038, 0x0004 Bytes, ...) - Data: 00 00 00 00 -- CPU_WriteMem(4 bytes @ 0x401F8038)  returns 0x04 (0000ms, 0290ms total)
T2D4C 002:426 JLINK_WriteMem(0x401F803C, 0x0004 Bytes, ...) - Data: 00 00 00 00 -- CPU_WriteMem(4 bytes @ 0x401F803C)  returns 0x04 (0000ms, 0290ms total)
T2D4C 002:426 JLINK_WriteMem(0x401F8040, 0x0004 Bytes, ...) - Data: 00 00 00 00 -- CPU_WriteMem(4 bytes @ 0x401F8040)  returns 0x04 (0000ms, 0290ms total)
T2D4C 002:426 JLINK_WriteMem(0x401F8044, 0x0004 Bytes, ...) - Data: 00 00 00 00 -- CPU_WriteMem(4 bytes @ 0x401F8044)  returns 0x04 (0000ms, 0290ms total)
T2D4C 002:426 JLINK_WriteMem(0x401F8048, 0x0004 Bytes, ...) - Data: 00 00 00 00 -- CPU_WriteMem(4 bytes @ 0x401F8048)  returns 0x04 (0001ms, 0291ms total)
T2D4C 002:427 JLINK_WriteMem(0x401F804C, 0x0004 Bytes, ...) - Data: 00 00 00 00 -- CPU_WriteMem(4 bytes @ 0x401F804C)  returns 0x04 (0000ms, 0291ms total)
T2D4C 002:427 JLINK_WriteMem(0x401F8050, 0x0004 Bytes, ...) - Data: 00 00 00 00 -- CPU_WriteMem(4 bytes @ 0x401F8050)  returns 0x04 (0000ms, 0291ms total)
T2D4C 002:427 JLINK_WriteMem(0x401F8054, 0x0004 Bytes, ...) - Data: 00 00 00 00 -- CPU_WriteMem(4 bytes @ 0x401F8054)  returns 0x04 (0001ms, 0292ms total)
T2D4C 002:428 JLINK_WriteMem(0x401F8058, 0x0004 Bytes, ...) - Data: 00 00 00 00 -- CPU_WriteMem(4 bytes @ 0x401F8058)  returns 0x04 (0000ms, 0292ms total)
T2D4C 002:428 JLINK_WriteMem(0x401F805C, 0x0004 Bytes, ...) - Data: 00 00 00 00 -- CPU_WriteMem(4 bytes @ 0x401F805C)  returns 0x04 (0001ms, 0293ms total)
T2D4C 002:429 JLINK_WriteMem(0x401F8060, 0x0004 Bytes, ...) - Data: 00 00 00 00 -- CPU_WriteMem(4 bytes @ 0x401F8060)  returns 0x04 (0000ms, 0293ms total)
T2D4C 002:429 JLINK_WriteMem(0x401F8064, 0x0004 Bytes, ...) - Data: 00 00 00 00 -- CPU_WriteMem(4 bytes @ 0x401F8064)  returns 0x04 (0000ms, 0293ms total)
T2D4C 002:429 JLINK_WriteMem(0x401F8068, 0x0004 Bytes, ...) - Data: 00 00 00 00 -- CPU_WriteMem(4 bytes @ 0x401F8068)  returns 0x04 (0000ms, 0293ms total)
T2D4C 002:429 JLINK_WriteMem(0x401F806C, 0x0004 Bytes, ...) - Data: 00 00 00 00 -- CPU_WriteMem(4 bytes @ 0x401F806C)  returns 0x04 (0001ms, 0294ms total)
T2D4C 002:430 JLINK_WriteMem(0x401F8070, 0x0004 Bytes, ...) - Data: 00 00 00 00 -- CPU_WriteMem(4 bytes @ 0x401F8070)  returns 0x04 (0000ms, 0294ms total)
T2D4C 002:430 JLINK_WriteMem(0x401F8074, 0x0004 Bytes, ...) - Data: 00 00 00 00 -- CPU_WriteMem(4 bytes @ 0x401F8074)  returns 0x04 (0000ms, 0294ms total)
T2D4C 002:430 JLINK_WriteMem(0x401F8078, 0x0004 Bytes, ...) - Data: 00 00 00 00 -- CPU_WriteMem(4 bytes @ 0x401F8078)  returns 0x04 (0000ms, 0294ms total)
T2D4C 002:430 JLINK_WriteMem(0x401F807C, 0x0004 Bytes, ...) - Data: 00 00 00 00 -- CPU_WriteMem(4 bytes @ 0x401F807C)  returns 0x04 (0000ms, 0294ms total)
T2D4C 002:430 JLINK_WriteMem(0x401F8080, 0x0004 Bytes, ...) - Data: 00 00 00 00 -- CPU_WriteMem(4 bytes @ 0x401F8080)  returns 0x04 (0000ms, 0294ms total)
T2D4C 002:430 JLINK_WriteMem(0x401F8084, 0x0004 Bytes, ...) - Data: 00 00 00 00 -- CPU_WriteMem(4 bytes @ 0x401F8084)  returns 0x04 (0001ms, 0295ms total)
T2D4C 002:431 JLINK_WriteMem(0x401F8088, 0x0004 Bytes, ...) - Data: 00 00 00 00 -- CPU_WriteMem(4 bytes @ 0x401F8088)  returns 0x04 (0000ms, 0295ms total)
T2D4C 002:431 JLINK_WriteMem(0x401F808C, 0x0004 Bytes, ...) - Data: 00 00 00 00 -- CPU_WriteMem(4 bytes @ 0x401F808C)  returns 0x04 (0000ms, 0295ms total)
T2D4C 002:431 JLINK_WriteMem(0x401F8090, 0x0004 Bytes, ...) - Data: 00 00 00 00 -- CPU_WriteMem(4 bytes @ 0x401F8090)  returns 0x04 (0000ms, 0295ms total)
T2D4C 002:431 JLINK_WriteMem(0x401F8094, 0x0004 Bytes, ...) - Data: 00 00 00 00 -- CPU_WriteMem(4 bytes @ 0x401F8094)  returns 0x04 (0001ms, 0296ms total)
T2D4C 002:432 JLINK_WriteMem(0x401F8098, 0x0004 Bytes, ...) - Data: 00 00 00 00 -- CPU_WriteMem(4 bytes @ 0x401F8098)  returns 0x04 (0000ms, 0296ms total)
T2D4C 002:432 JLINK_WriteMem(0x401F809C, 0x0004 Bytes, ...) - Data: 00 00 00 00 -- CPU_WriteMem(4 bytes @ 0x401F809C)  returns 0x04 (0000ms, 0296ms total)
T2D4C 002:432 JLINK_WriteMem(0x401F80A0, 0x0004 Bytes, ...) - Data: 00 00 00 00 -- CPU_WriteMem(4 bytes @ 0x401F80A0)  returns 0x04 (0000ms, 0296ms total)
T2D4C 002:432 JLINK_WriteMem(0x401F80A4, 0x0004 Bytes, ...) - Data: 00 00 00 00 -- CPU_WriteMem(4 bytes @ 0x401F80A4)  returns 0x04 (0001ms, 0297ms total)
T2D4C 002:433 JLINK_WriteMem(0x401F80A8, 0x0004 Bytes, ...) - Data: 00 00 00 00 -- CPU_WriteMem(4 bytes @ 0x401F80A8)  returns 0x04 (0000ms, 0297ms total)
T2D4C 002:433 JLINK_WriteMem(0x401F80AC, 0x0004 Bytes, ...) - Data: 00 00 00 00 -- CPU_WriteMem(4 bytes @ 0x401F80AC)  returns 0x04 (0000ms, 0297ms total)
T2D4C 002:433 JLINK_WriteMem(0x401F80B0, 0x0004 Bytes, ...) - Data: 10 00 00 00 -- CPU_WriteMem(4 bytes @ 0x401F80B0)  returns 0x04 (0000ms, 0297ms total)
T2D4C 002:433 JLINK_WriteMem(0x401F80B4, 0x0004 Bytes, ...) - Data: 00 00 00 00 -- CPU_WriteMem(4 bytes @ 0x401F80B4)  returns 0x04 (0001ms, 0298ms total)
T2D4C 002:434 JLINK_WriteMem(0x401F80B8, 0x0004 Bytes, ...) - Data: 00 00 00 00 -- CPU_WriteMem(4 bytes @ 0x401F80B8)  returns 0x04 (0000ms, 0298ms total)
T2D4C 002:434 JLINK_WriteMem(0x401F8204, 0x0004 Bytes, ...) - Data: F9 10 01 00 -- CPU_WriteMem(4 bytes @ 0x401F8204)  returns 0x04 (0000ms, 0298ms total)
T2D4C 002:434 JLINK_WriteMem(0x401F8208, 0x0004 Bytes, ...) - Data: F9 10 01 00 -- CPU_WriteMem(4 bytes @ 0x401F8208)  returns 0x04 (0000ms, 0298ms total)
T2D4C 002:434 JLINK_WriteMem(0x401F820C, 0x0004 Bytes, ...) - Data: F9 10 01 00 -- CPU_WriteMem(4 bytes @ 0x401F820C)  returns 0x04 (0001ms, 0299ms total)
T2D4C 002:435 JLINK_WriteMem(0x401F8210, 0x0004 Bytes, ...) - Data: F9 10 01 00 -- CPU_WriteMem(4 bytes @ 0x401F8210)  returns 0x04 (0000ms, 0299ms total)
T2D4C 002:435 JLINK_WriteMem(0x401F8214, 0x0004 Bytes, ...) - Data: F9 10 01 00 -- CPU_WriteMem(4 bytes @ 0x401F8214)  returns 0x04 (0000ms, 0299ms total)
T2D4C 002:435 JLINK_WriteMem(0x401F8218, 0x0004 Bytes, ...) - Data: F9 10 01 00 -- CPU_WriteMem(4 bytes @ 0x401F8218)  returns 0x04 (0001ms, 0300ms total)
T2D4C 002:436 JLINK_WriteMem(0x401F821C, 0x0004 Bytes, ...) - Data: F9 10 01 00 -- CPU_WriteMem(4 bytes @ 0x401F821C)  returns 0x04 (0000ms, 0300ms total)
T2D4C 002:436 JLINK_WriteMem(0x401F8220, 0x0004 Bytes, ...) - Data: F9 10 01 00 -- CPU_WriteMem(4 bytes @ 0x401F8220)  returns 0x04 (0000ms, 0300ms total)
T2D4C 002:436 JLINK_WriteMem(0x401F8224, 0x0004 Bytes, ...) - Data: F9 10 01 00 -- CPU_WriteMem(4 bytes @ 0x401F8224)  returns 0x04 (0000ms, 0300ms total)
T2D4C 002:436 JLINK_WriteMem(0x401F8228, 0x0004 Bytes, ...) - Data: F9 10 01 00 -- CPU_WriteMem(4 bytes @ 0x401F8228)  returns 0x04 (0001ms, 0301ms total)
T2D4C 002:437 JLINK_WriteMem(0x401F822C, 0x0004 Bytes, ...) - Data: F9 10 01 00 -- CPU_WriteMem(4 bytes @ 0x401F822C)  returns 0x04 (0000ms, 0301ms total)
T2D4C 002:437 JLINK_WriteMem(0x401F8230, 0x0004 Bytes, ...) - Data: F9 10 01 00 -- CPU_WriteMem(4 bytes @ 0x401F8230)  returns 0x04 (0000ms, 0301ms total)
T2D4C 002:437 JLINK_WriteMem(0x401F8234, 0x0004 Bytes, ...) - Data: F9 10 01 00 -- CPU_WriteMem(4 bytes @ 0x401F8234)  returns 0x04 (0000ms, 0301ms total)
T2D4C 002:437 JLINK_WriteMem(0x401F8238, 0x0004 Bytes, ...) - Data: F9 10 01 00 -- CPU_WriteMem(4 bytes @ 0x401F8238)  returns 0x04 (0001ms, 0302ms total)
T2D4C 002:438 JLINK_WriteMem(0x401F823C, 0x0004 Bytes, ...) - Data: F9 10 01 00 -- CPU_WriteMem(4 bytes @ 0x401F823C)  returns 0x04 (0000ms, 0302ms total)
T2D4C 002:438 JLINK_WriteMem(0x401F8240, 0x0004 Bytes, ...) - Data: F9 10 01 00 -- CPU_WriteMem(4 bytes @ 0x401F8240)  returns 0x04 (0000ms, 0302ms total)
T2D4C 002:438 JLINK_WriteMem(0x401F8244, 0x0004 Bytes, ...) - Data: F9 10 01 00 -- CPU_WriteMem(4 bytes @ 0x401F8244)  returns 0x04 (0000ms, 0302ms total)
T2D4C 002:438 JLINK_WriteMem(0x401F8248, 0x0004 Bytes, ...) - Data: F9 10 01 00 -- CPU_WriteMem(4 bytes @ 0x401F8248)  returns 0x04 (0000ms, 0302ms total)
T2D4C 002:438 JLINK_WriteMem(0x401F824C, 0x0004 Bytes, ...) - Data: F9 10 01 00 -- CPU_WriteMem(4 bytes @ 0x401F824C)  returns 0x04 (0000ms, 0302ms total)
T2D4C 002:438 JLINK_WriteMem(0x401F8250, 0x0004 Bytes, ...) - Data: F9 10 01 00 -- CPU_WriteMem(4 bytes @ 0x401F8250)  returns 0x04 (0001ms, 0303ms total)
T2D4C 002:439 JLINK_WriteMem(0x401F8254, 0x0004 Bytes, ...) - Data: F9 10 01 00 -- CPU_WriteMem(4 bytes @ 0x401F8254)  returns 0x04 (0000ms, 0303ms total)
T2D4C 002:439 JLINK_WriteMem(0x401F8258, 0x0004 Bytes, ...) - Data: F9 10 01 00 -- CPU_WriteMem(4 bytes @ 0x401F8258)  returns 0x04 (0000ms, 0303ms total)
T2D4C 002:439 JLINK_WriteMem(0x401F825C, 0x0004 Bytes, ...) - Data: F9 10 01 00 -- CPU_WriteMem(4 bytes @ 0x401F825C)  returns 0x04 (0001ms, 0304ms total)
T2D4C 002:440 JLINK_WriteMem(0x401F8260, 0x0004 Bytes, ...) - Data: F9 10 01 00 -- CPU_WriteMem(4 bytes @ 0x401F8260)  returns 0x04 (0000ms, 0304ms total)
T2D4C 002:440 JLINK_WriteMem(0x401F8264, 0x0004 Bytes, ...) - Data: F9 10 01 00 -- CPU_WriteMem(4 bytes @ 0x401F8264)  returns 0x04 (0000ms, 0304ms total)
T2D4C 002:440 JLINK_WriteMem(0x401F8268, 0x0004 Bytes, ...) - Data: F9 10 01 00 -- CPU_WriteMem(4 bytes @ 0x401F8268)  returns 0x04 (0000ms, 0304ms total)
T2D4C 002:440 JLINK_WriteMem(0x401F826C, 0x0004 Bytes, ...) - Data: F9 10 01 00 -- CPU_WriteMem(4 bytes @ 0x401F826C)  returns 0x04 (0000ms, 0304ms total)
T2D4C 002:440 JLINK_WriteMem(0x401F8270, 0x0004 Bytes, ...) - Data: F9 10 01 00 -- CPU_WriteMem(4 bytes @ 0x401F8270)  returns 0x04 (0001ms, 0305ms total)
T2D4C 002:441 JLINK_WriteMem(0x401F8274, 0x0004 Bytes, ...) - Data: F9 10 01 00 -- CPU_WriteMem(4 bytes @ 0x401F8274)  returns 0x04 (0000ms, 0305ms total)
T2D4C 002:441 JLINK_WriteMem(0x401F8278, 0x0004 Bytes, ...) - Data: F9 10 01 00 -- CPU_WriteMem(4 bytes @ 0x401F8278)  returns 0x04 (0000ms, 0305ms total)
T2D4C 002:441 JLINK_WriteMem(0x401F827C, 0x0004 Bytes, ...) - Data: F9 10 01 00 -- CPU_WriteMem(4 bytes @ 0x401F827C)  returns 0x04 (0000ms, 0305ms total)
T2D4C 002:441 JLINK_WriteMem(0x401F8280, 0x0004 Bytes, ...) - Data: F9 10 01 00 -- CPU_WriteMem(4 bytes @ 0x401F8280)  returns 0x04 (0000ms, 0305ms total)
T2D4C 002:441 JLINK_WriteMem(0x401F8284, 0x0004 Bytes, ...) - Data: F9 10 01 00 -- CPU_WriteMem(4 bytes @ 0x401F8284)  returns 0x04 (0001ms, 0306ms total)
T2D4C 002:442 JLINK_WriteMem(0x401F8288, 0x0004 Bytes, ...) - Data: F9 10 01 00 -- CPU_WriteMem(4 bytes @ 0x401F8288)  returns 0x04 (0000ms, 0306ms total)
T2D4C 002:442 JLINK_WriteMem(0x401F828C, 0x0004 Bytes, ...) - Data: F9 10 01 00 -- CPU_WriteMem(4 bytes @ 0x401F828C)  returns 0x04 (0001ms, 0307ms total)
T2D4C 002:443 JLINK_WriteMem(0x401F8290, 0x0004 Bytes, ...) - Data: F9 10 01 00 -- CPU_WriteMem(4 bytes @ 0x401F8290)  returns 0x04 (0000ms, 0307ms total)
T2D4C 002:443 JLINK_WriteMem(0x401F8294, 0x0004 Bytes, ...) - Data: F9 10 01 00 -- CPU_WriteMem(4 bytes @ 0x401F8294)  returns 0x04 (0000ms, 0307ms total)
T2D4C 002:443 JLINK_WriteMem(0x401F8298, 0x0004 Bytes, ...) - Data: F9 10 01 00 -- CPU_WriteMem(4 bytes @ 0x401F8298)  returns 0x04 (0000ms, 0307ms total)
T2D4C 002:443 JLINK_WriteMem(0x401F829C, 0x0004 Bytes, ...) - Data: F9 10 01 00 -- CPU_WriteMem(4 bytes @ 0x401F829C)  returns 0x04 (0000ms, 0307ms total)
T2D4C 002:443 JLINK_WriteMem(0x401F82A0, 0x0004 Bytes, ...) - Data: F9 10 01 00 -- CPU_WriteMem(4 bytes @ 0x401F82A0)  returns 0x04 (0001ms, 0308ms total)
T2D4C 002:444 JLINK_WriteMem(0x401F82A4, 0x0004 Bytes, ...) - Data: F9 10 01 00 -- CPU_WriteMem(4 bytes @ 0x401F82A4)  returns 0x04 (0000ms, 0308ms total)
T2D4C 002:444 JLINK_WriteMem(0x401F82A8, 0x0004 Bytes, ...) - Data: F9 10 01 00 -- CPU_WriteMem(4 bytes @ 0x401F82A8)  returns 0x04 (0000ms, 0308ms total)
T2D4C 002:444 JLINK_WriteMem(0x402F0000, 0x0004 Bytes, ...) - Data: 04 00 00 10 -- CPU_WriteMem(4 bytes @ 0x402F0000)  returns 0x04 (0000ms, 0308ms total)
T2D4C 002:444 JLINK_WriteMem(0x402F0008, 0x0004 Bytes, ...) - Data: 24 05 03 00 -- CPU_WriteMem(4 bytes @ 0x402F0008)  returns 0x04 (0000ms, 0308ms total)
T2D4C 002:444 JLINK_WriteMem(0x402F000C, 0x0004 Bytes, ...) - Data: 24 05 03 06 -- CPU_WriteMem(4 bytes @ 0x402F000C)  returns 0x04 (0001ms, 0309ms total)
T2D4C 002:445 JLINK_WriteMem(0x402F0010, 0x0004 Bytes, ...) - Data: 1B 00 00 80 -- CPU_WriteMem(4 bytes @ 0x402F0010)  returns 0x04 (0000ms, 0309ms total)
T2D4C 002:445 JLINK_WriteMem(0x402F0014, 0x0004 Bytes, ...) - Data: 1B 00 00 82 -- CPU_WriteMem(4 bytes @ 0x402F0014)  returns 0x04 (0001ms, 0310ms total)
T2D4C 002:446 JLINK_WriteMem(0x402F0018, 0x0004 Bytes, ...) - Data: 1B 00 00 84 -- CPU_WriteMem(4 bytes @ 0x402F0018)  returns 0x04 (0000ms, 0310ms total)
T2D4C 002:446 JLINK_WriteMem(0x402F001C, 0x0004 Bytes, ...) - Data: 1B 00 00 86 -- CPU_WriteMem(4 bytes @ 0x402F001C)  returns 0x04 (0000ms, 0310ms total)
T2D4C 002:446 JLINK_WriteMem(0x402F0020, 0x0004 Bytes, ...) - Data: 21 00 00 90 -- CPU_WriteMem(4 bytes @ 0x402F0020)  returns 0x04 (0000ms, 0310ms total)
T2D4C 002:446 JLINK_WriteMem(0x402F0024, 0x0004 Bytes, ...) - Data: 19 00 00 A0 -- CPU_WriteMem(4 bytes @ 0x402F0024)  returns 0x04 (0000ms, 0310ms total)
T2D4C 002:446 JLINK_WriteMem(0x402F0028, 0x0004 Bytes, ...) - Data: 17 00 00 A8 -- CPU_WriteMem(4 bytes @ 0x402F0028)  returns 0x04 (0001ms, 0311ms total)
T2D4C 002:447 JLINK_WriteMem(0x402F002C, 0x0004 Bytes, ...) - Data: 1B 00 00 A9 -- CPU_WriteMem(4 bytes @ 0x402F002C)  returns 0x04 (0000ms, 0311ms total)
T2D4C 002:447 JLINK_WriteMem(0x402F0030, 0x0004 Bytes, ...) - Data: 21 00 00 00 -- CPU_WriteMem(4 bytes @ 0x402F0030)  returns 0x04 (0000ms, 0311ms total)
T2D4C 002:447 JLINK_WriteMem(0x402F0004, 0x0004 Bytes, ...) - Data: A8 79 00 00 -- CPU_WriteMem(4 bytes @ 0x402F0004)  returns 0x04 (0000ms, 0311ms total)
T2D4C 002:447 JLINK_WriteMem(0x402F0040, 0x0004 Bytes, ...) - Data: 31 0F 00 00 -- CPU_WriteMem(4 bytes @ 0x402F0040)  returns 0x04 (0001ms, 0312ms total)
T2D4C 002:448 JLINK_WriteMem(0x402F0044, 0x0004 Bytes, ...) - Data: 22 29 65 00 -- CPU_WriteMem(4 bytes @ 0x402F0044)  returns 0x04 (0000ms, 0312ms total)
T2D4C 002:448 JLINK_WriteMem(0x402F0048, 0x0004 Bytes, ...) - Data: 20 09 01 00 -- CPU_WriteMem(4 bytes @ 0x402F0048)  returns 0x04 (0000ms, 0312ms total)
T2D4C 002:448 JLINK_WriteMem(0x402F004C, 0x0004 Bytes, ...) - Data: 08 0A 21 50 -- CPU_WriteMem(4 bytes @ 0x402F004C)  returns 0x04 (0000ms, 0312ms total)
T2D4C 002:448 JLINK_WriteMem(0x402F0080, 0x0004 Bytes, ...) - Data: 21 00 00 00 -- CPU_WriteMem(4 bytes @ 0x402F0080)  returns 0x04 (0001ms, 0313ms total)
T2D4C 002:449 JLINK_WriteMem(0x402F0084, 0x0004 Bytes, ...) - Data: 88 88 88 00 -- CPU_WriteMem(4 bytes @ 0x402F0084)  returns 0x04 (0000ms, 0313ms total)
T2D4C 002:449 JLINK_WriteMem(0x402F0094, 0x0004 Bytes, ...) - Data: 02 00 00 00 -- CPU_WriteMem(4 bytes @ 0x402F0094)  returns 0x04 (0000ms, 0313ms total)
T2D4C 002:449 JLINK_WriteMem(0x402F0098, 0x0004 Bytes, ...) - Data: 00 00 00 00 -- CPU_WriteMem(4 bytes @ 0x402F0098)  returns 0x04 (0000ms, 0313ms total)
T2D4C 002:449 JLINK_WriteMem(0x402F0090, 0x0004 Bytes, ...) - Data: 00 00 00 80 -- CPU_WriteMem(4 bytes @ 0x402F0090)  returns 0x04 (0000ms, 0313ms total)
T2D4C 002:449 JLINK_WriteMem(0x402F009C, 0x0004 Bytes, ...) - Data: 0F 00 5A A5 -- CPU_WriteMem(4 bytes @ 0x402F009C)  returns 0x04 (0001ms, 0314ms total)
T2D4C 002:450 JLINK_ReadMem (0x402F003C, 0x0004 Bytes, ...) -- CPU_ReadMem(4 bytes @ 0x402F003C) - Data: 01 00 00 00  returns 0x00 (0000ms, 0314ms total)
T2D4C 002:450 JLINK_WriteMem(0x402F0090, 0x0004 Bytes, ...) - Data: 00 00 00 80 -- CPU_WriteMem(4 bytes @ 0x402F0090)  returns 0x04 (0000ms, 0314ms total)
T2D4C 002:450 JLINK_WriteMem(0x402F009C, 0x0004 Bytes, ...) - Data: 0C 00 5A A5 -- CPU_WriteMem(4 bytes @ 0x402F009C)  returns 0x04 (0000ms, 0314ms total)
T2D4C 002:450 JLINK_ReadMem (0x402F003C, 0x0004 Bytes, ...) -- CPU_ReadMem(4 bytes @ 0x402F003C) - Data: 01 00 00 00  returns 0x00 (0001ms, 0315ms total)
T2D4C 002:483 JLINK_WriteMem(0x402F0090, 0x0004 Bytes, ...) - Data: 00 00 00 80 -- CPU_WriteMem(4 bytes @ 0x402F0090)  returns 0x04 (0001ms, 0316ms total)
T2D4C 002:484 JLINK_WriteMem(0x402F009C, 0x0004 Bytes, ...) - Data: 0C 00 5A A5 -- CPU_WriteMem(4 bytes @ 0x402F009C)  returns 0x04 (0000ms, 0316ms total)
T2D4C 002:484 JLINK_ReadMem (0x402F003C, 0x0004 Bytes, ...) -- CPU_ReadMem(4 bytes @ 0x402F003C) - Data: 01 00 00 00  returns 0x00 (0000ms, 0316ms total)
T2D4C 002:484 JLINK_WriteMem(0x402F00A0, 0x0004 Bytes, ...) - Data: 33 00 00 00 -- CPU_WriteMem(4 bytes @ 0x402F00A0)  returns 0x04 (0000ms, 0316ms total)
T2D4C 002:484 JLINK_WriteMem(0x402F0090, 0x0004 Bytes, ...) - Data: 00 00 00 80 -- CPU_WriteMem(4 bytes @ 0x402F0090)  returns 0x04 (0001ms, 0317ms total)
T2D4C 002:485 JLINK_WriteMem(0x402F009C, 0x0004 Bytes, ...) - Data: 0A 00 5A A5 -- CPU_WriteMem(4 bytes @ 0x402F009C)  returns 0x04 (0000ms, 0317ms total)
T2D4C 002:485 JLINK_ReadMem (0x402F003C, 0x0004 Bytes, ...) -- CPU_ReadMem(4 bytes @ 0x402F003C) - Data: 01 00 00 00  returns 0x00 (0000ms, 0317ms total)
T2D4C 002:485 JLINK_WriteMem(0x402F004C, 0x0004 Bytes, ...) - Data: 09 0A 21 50 -- CPU_WriteMem(4 bytes @ 0x402F004C)  returns 0x04 (0000ms, 0317ms total)
T2D4C 003:228 JLINK_WriteMem(0x80000000, 0x0400 Bytes, ...) - Data: 46 43 46 42 00 04 01 56 00 00 00 00 03 03 03 03 ... -- CPU_WriteMem(1024 bytes @ 0x80000000)  returns 0x400 (0006ms, 0323ms total)
T2D4C 003:234 JLINK_WriteMem(0x80000400, 0x0260 Bytes, ...) - Data: 40 1F 82 18 00 01 10 F9 40 1F 82 1C 00 01 10 F9 ... -- CPU_WriteMem(608 bytes @ 0x80000400)  returns 0x260 (0004ms, 0327ms total)
T2D4C 003:238 JLINK_WriteMem(0x80002000, 0x0400 Bytes, ...) - Data: 00 18 00 20 71 25 00 80 8B 74 00 80 3D 25 00 80 ... -- CPU_WriteMem(1024 bytes @ 0x80002000)  returns 0x400 (0006ms, 0333ms total)
T2D4C 003:244 JLINK_WriteMem(0x80002400, 0x0400 Bytes, ...) - Data: 00 F0 02 F8 00 F0 8A F8 0A A0 90 E8 00 0C 82 44 ... -- CPU_WriteMem(1024 bytes @ 0x80002400)  returns 0x400 (0007ms, 0340ms total)
T2D4C 003:251 JLINK_WriteMem(0x80002800, 0x0400 Bytes, ...) - Data: 70 BD 00 2C 18 BF AC 42 3C BF 20 46 64 68 F8 D3 ... -- CPU_WriteMem(1024 bytes @ 0x80002800)  returns 0x400 (0006ms, 0346ms total)
T2D4C 003:257 JLINK_WriteMem(0x80002C00, 0x0400 Bytes, ...) - Data: 6C 2D 0B D0 68 2D 09 D0 4C 2D 39 D0 6A 2D 35 D0 ... -- CPU_WriteMem(1024 bytes @ 0x80002C00)  returns 0x400 (0006ms, 0352ms total)
T2D4C 003:264 JLINK_WriteMem(0x80003000, 0x0400 Bytes, ...) - Data: 00 E0 01 20 A8 42 01 DD 47 1B 00 E0 00 27 A1 69 ... -- CPU_WriteMem(1024 bytes @ 0x80003000)  returns 0x400 (0006ms, 0358ms total)
T2D4C 003:270 JLINK_WriteMem(0x80003400, 0x0400 Bytes, ...) - Data: 80 32 0A E0 60 68 41 1C 61 60 06 70 E0 68 0A 2E ... -- CPU_WriteMem(1024 bytes @ 0x80003400)  returns 0x400 (0006ms, 0364ms total)
T2D4C 003:276 JLINK_WriteMem(0x80003800, 0x0400 Bytes, ...) - Data: 61 68 88 42 00 D8 08 46 E1 68 21 F4 20 11 E1 60 ... -- CPU_WriteMem(1024 bytes @ 0x80003800)  returns 0x400 (0007ms, 0371ms total)
T2D4C 003:283 JLINK_WriteMem(0x80003C00, 0x0400 Bytes, ...) - Data: 6F 8F 00 BF 00 BF 00 BF 40 F0 01 01 05 4A 11 60 ... -- CPU_WriteMem(1024 bytes @ 0x80003C00)  returns 0x400 (0005ms, 0376ms total)
T2D4C 003:289 JLINK_WriteMem(0x80004000, 0x0400 Bytes, ...) - Data: 1A 48 F0 30 02 F0 F5 FB 1A 48 19 49 0C 39 00 23 ... -- CPU_WriteMem(1024 bytes @ 0x80004000)  returns 0x400 (0007ms, 0383ms total)
T2D4C 003:296 JLINK_WriteMem(0x80004400, 0x0400 Bytes, ...) - Data: EB F8 4E 49 49 69 C1 F3 82 21 49 1C B0 FB F1 F4 ... -- CPU_WriteMem(1024 bytes @ 0x80004400)  returns 0x400 (0006ms, 0389ms total)
T2D4C 003:302 JLINK_WriteMem(0x80004800, 0x0400 Bytes, ...) - Data: 50 E0 59 E0 03 E0 3B E0 00 BF 00 BF 56 E0 2E 48 ... -- CPU_WriteMem(1024 bytes @ 0x80004800)  returns 0x400 (0006ms, 0395ms total)
T2D4C 003:308 JLINK_WriteMem(0x80004C00, 0x0400 Bytes, ...) - Data: F8 D1 70 BD 00 C0 0F 40 70 B5 3F 23 03 EA 90 62 ... -- CPU_WriteMem(1024 bytes @ 0x80004C00)  returns 0x400 (0006ms, 0401ms total)
T2D4C 003:314 JLINK_WriteMem(0x80005000, 0x0400 Bytes, ...) - Data: 12 21 05 48 00 F0 31 F9 00 F0 04 00 18 B1 03 49 ... -- CPU_WriteMem(1024 bytes @ 0x80005000)  returns 0x400 (0007ms, 0408ms total)
T2D4C 003:321 JLINK_WriteMem(0x80005400, 0x0400 Bytes, ...) - Data: 8A 42 00 D1 02 E0 40 1C 00 28 F6 D0 00 BF 70 47 ... -- CPU_WriteMem(1024 bytes @ 0x80005400)  returns 0x400 (0006ms, 0414ms total)
T2D4C 003:327 JLINK_WriteMem(0x80005800, 0x0400 Bytes, ...) - Data: B4 F8 08 80 4F F0 FF 30 00 90 E0 8F A8 42 12 D1 ... -- CPU_WriteMem(1024 bytes @ 0x80005800)  returns 0x400 (0006ms, 0420ms total)
T2D4C 003:333 JLINK_WriteMem(0x80005C00, 0x0400 Bytes, ...) - Data: 10 B5 04 46 00 20 20 70 60 70 A0 70 01 20 E0 70 ... -- CPU_WriteMem(1024 bytes @ 0x80005C00)  returns 0x400 (0006ms, 0426ms total)
T2D4C 003:340 JLINK_WriteMem(0x80006000, 0x0400 Bytes, ...) - Data: 02 EA C1 01 08 43 44 F8 94 09 20 68 20 F0 02 00 ... -- CPU_WriteMem(1024 bytes @ 0x80006000)  returns 0x400 (0006ms, 0432ms total)
T2D4C 003:346 JLINK_WriteMem(0x80006400, 0x0400 Bytes, ...) - Data: A8 40 81 43 61 61 30 78 28 B9 60 68 01 21 A9 40 ... -- CPU_WriteMem(1024 bytes @ 0x80006400)  returns 0x400 (0006ms, 0438ms total)
T2D4C 003:352 JLINK_WriteMem(0x80006800, 0x0400 Bytes, ...) - Data: DD E9 03 45 04 B1 25 60 30 BD F0 B5 DD E9 05 54 ... -- CPU_WriteMem(1024 bytes @ 0x80006800)  returns 0x400 (0006ms, 0444ms total)
T2D4C 003:358 JLINK_WriteMem(0x80006C00, 0x0400 Bytes, ...) - Data: 08 22 20 20 00 80 19 40 10 B5 03 48 C1 69 03 48 ... -- CPU_WriteMem(1024 bytes @ 0x80006C00)  returns 0x400 (0006ms, 0450ms total)
T2D4C 003:364 JLINK_WriteMem(0x80007000, 0x0400 Bytes, ...) - Data: 00 30 38 B1 4F F4 00 31 28 46 FF F7 31 FE 40 F2 ... -- CPU_WriteMem(1024 bytes @ 0x80007000)  returns 0x400 (0006ms, 0456ms total)
T2D4C 003:370 JLINK_WriteMem(0x80007400, 0x0400 Bytes, ...) - Data: 01 00 70 47 01 46 01 F0 01 00 70 47 01 46 01 F0 ... -- CPU_WriteMem(1024 bytes @ 0x80007400)  returns 0x400 (0007ms, 0463ms total)
T2D4C 003:377 JLINK_WriteMem(0x80007800, 0x0400 Bytes, ...) - Data: E0 61 01 98 80 45 1C D1 4F F0 00 08 AA F1 01 0A ... -- CPU_WriteMem(1024 bytes @ 0x80007800)  returns 0x400 (0006ms, 0469ms total)
T2D4C 003:383 JLINK_WriteMem(0x80007C00, 0x0400 Bytes, ...) - Data: 0B 1E A1 F1 01 01 E7 D1 00 BF 00 BF 00 BF BF F3 ... -- CPU_WriteMem(1024 bytes @ 0x80007C00)  returns 0x400 (0006ms, 0475ms total)
T2D4C 003:389 JLINK_WriteMem(0x80008000, 0x0400 Bytes, ...) - Data: 9C B1 96 B1 0A 48 07 68 00 BF 09 48 00 68 C5 1B ... -- CPU_WriteMem(1024 bytes @ 0x80008000)  returns 0x400 (0007ms, 0482ms total)
T2D4C 003:396 JLINK_WriteMem(0x80008400, 0x0400 Bytes, ...) - Data: 0A 21 38 46 06 F0 7C FC 26 E0 2E A9 38 46 A0 47 ... -- CPU_WriteMem(1024 bytes @ 0x80008400)  returns 0x400 (0006ms, 0488ms total)
T2D4C 003:402 JLINK_WriteMem(0x80008800, 0x0400 Bytes, ...) - Data: 40 F2 0E 70 A4 E7 20 46 00 F0 F3 FC 10 B1 40 F2 ... -- CPU_WriteMem(1024 bytes @ 0x80008800)  returns 0x400 (0005ms, 0493ms total)
T2D4C 003:407 JLINK_WriteMem(0x80008C00, 0x0400 Bytes, ...) - Data: 70 B5 04 46 0D 46 29 46 20 46 FF F7 39 FB 70 BD ... -- CPU_WriteMem(1024 bytes @ 0x80008C00)  returns 0x400 (0007ms, 0500ms total)
T2D4C 003:414 JLINK_WriteMem(0x80009000, 0x0400 Bytes, ...) - Data: 00 23 1A 46 CD E9 00 10 19 46 00 E0 10 E0 0E 48 ... -- CPU_WriteMem(1024 bytes @ 0x80009000)  returns 0x400 (0006ms, 0506ms total)
T2D4C 003:421 JLINK_WriteMem(0x80009400, 0x0400 Bytes, ...) - Data: 01 90 04 E0 02 20 01 90 01 E0 04 20 EC E7 00 BF ... -- CPU_WriteMem(1024 bytes @ 0x80009400)  returns 0x400 (0005ms, 0511ms total)
T2D4C 003:426 JLINK_WriteMem(0x80009800, 0x0400 Bytes, ...) - Data: 40 F2 0A 60 FA F7 68 FD 01 21 03 48 FC F7 DE F9 ... -- CPU_WriteMem(1024 bytes @ 0x80009800)  returns 0x400 (0006ms, 0517ms total)
T2D4C 003:432 JLINK_WriteMem(0x80009C00, 0x0400 Bytes, ...) - Data: 20 F0 04 00 17 49 08 80 17 48 00 88 00 F0 04 00 ... -- CPU_WriteMem(1024 bytes @ 0x80009C00)  returns 0x400 (0006ms, 0523ms total)
T2D4C 003:439 JLINK_WriteMem(0x8000A000, 0x0400 Bytes, ...) - Data: 40 78 40 F0 80 00 08 75 0F 48 40 78 0E 49 88 71 ... -- CPU_WriteMem(1024 bytes @ 0x8000A000)  returns 0x400 (0006ms, 0529ms total)
T2D4C 003:445 JLINK_WriteMem(0x8000A400, 0x0400 Bytes, ...) - Data: 00 98 04 F0 A4 FB 01 20 F8 BD 64 1C 00 2C E9 D0 ... -- CPU_WriteMem(1024 bytes @ 0x8000A400)  returns 0x400 (0006ms, 0535ms total)
T2D4C 003:451 JLINK_WriteMem(0x8000A800, 0x0400 Bytes, ...) - Data: 0F 01 24 20 01 55 00 21 25 20 01 55 43 48 01 90 ... -- CPU_WriteMem(1024 bytes @ 0x8000A800)  returns 0x400 (0007ms, 0542ms total)
T2D4C 003:458 JLINK_WriteMem(0x8000AC00, 0x0400 Bytes, ...) - Data: 00 98 00 68 08 B9 03 20 F1 E7 00 98 45 60 00 20 ... -- CPU_WriteMem(1024 bytes @ 0x8000AC00)  returns 0x400 (0005ms, 0547ms total)
T2D4C 003:464 JLINK_WriteMem(0x8000B000, 0x0400 Bytes, ...) - Data: 24 07 20 20 18 07 20 20 A0 3B 20 20 46 61 69 6C ... -- CPU_WriteMem(1024 bytes @ 0x8000B000)  returns 0x400 (0006ms, 0553ms total)
T2D4C 003:470 JLINK_WriteMem(0x8000B400, 0x0400 Bytes, ...) - Data: 06 46 30 46 C1 E7 F8 B5 04 46 0D 46 16 46 1F 46 ... -- CPU_WriteMem(1024 bytes @ 0x8000B400)  returns 0x400 (0006ms, 0559ms total)
T2D4C 003:476 JLINK_WriteMem(0x8000B800, 0x0400 Bytes, ...) - Data: 24 49 48 46 00 9A 01 F0 A3 FA 80 46 B8 F1 00 0F ... -- CPU_WriteMem(1024 bytes @ 0x8000B800)  returns 0x400 (0006ms, 0565ms total)
T2D4C 003:482 JLINK_WriteMem(0x8000BC00, 0x0400 Bytes, ...) - Data: 2A F9 04 46 2C B1 80 21 30 46 00 F0 1A F8 20 46 ... -- CPU_WriteMem(1024 bytes @ 0x8000BC00)  returns 0x400 (0007ms, 0572ms total)
T2D4C 003:489 JLINK_WriteMem(0x8000C000, 0x0400 Bytes, ...) - Data: 00 E0 01 27 3B 40 0B B1 01 23 00 E0 00 23 43 80 ... -- CPU_WriteMem(1024 bytes @ 0x8000C000)  returns 0x400 (0006ms, 0578ms total)
T2D4C 003:495 JLINK_WriteMem(0x8000C400, 0x0400 Bytes, ...) - Data: 1E E0 44 68 D4 F8 40 41 44 F4 00 54 45 68 C5 F8 ... -- CPU_WriteMem(1024 bytes @ 0x8000C400)  returns 0x400 (0006ms, 0584ms total)
T2D4C 003:501 JLINK_WriteMem(0x8000C800, 0x0400 Bytes, ...) - Data: D0 F8 B0 01 00 EA 09 00 00 28 F8 D1 60 68 D0 F8 ... -- CPU_WriteMem(1024 bytes @ 0x8000C800)  returns 0x400 (0006ms, 0590ms total)
